! Sonnet Data File
! From: emclient Version : 13.56
! From Project: Coupling5_rescale
! Data is De-embedded 
! Data File Written: 06/30/2014 10:01:03
!< HDATE 05/22/2014 16:03:55
!< MDATE 05/22/2014 16:07:25
# GHZ S RI R 0.020000
18.00000000000000 -8.338697352e-3 0.0221096353589 -0.999605185873 -0.015202041723 -0.999605185873 -0.015202041700 0.0076625082667 0.0223529823911
!< P1 F=18.0 Eeff=(undefined: mp) Z0=(undefined: mp) R=0.0 C=0.0 
!< P2 F=18.0 Eeff=(undefined: mp) Z0=(undefined: mp) R=0.0 C=0.0 
18.01000000000000 0.0091739272024 0.1487533993075 -0.982296415546 0.1134989746817 -0.982296415546 0.1134989746820 0.0249901993834 0.1469259156208
!< P1 F=18.01 Eeff=(undefined: mp) Z0=(undefined: mp) R=0.0 C=0.0 
!< P2 F=18.01 Eeff=(undefined: mp) Z0=(undefined: mp) R=0.0 C=0.0 
18.02000000000000 0.0576801637615 0.2648903233501 -0.934235489000 0.2317545391234 -0.934235489000 0.2317545391225 0.0728107035096 0.2611369107399
!< P1 F=18.02 Eeff=(undefined: mp) Z0=(undefined: mp) R=0.0 C=0.0 
!< P2 F=18.02 Eeff=(undefined: mp) Z0=(undefined: mp) R=0.0 C=0.0 
18.03000000000000 0.1304421716803 0.3613253548588 -0.862110101886 0.3304466673985 -0.862110101886 0.3304466673989 0.1444863753656 0.3559422137794
!< P1 F=18.03 Eeff=(undefined: mp) Z0=(undefined: mp) R=0.0 C=0.0 
!< P2 F=18.03 Eeff=(undefined: mp) Z0=(undefined: mp) R=0.0 C=0.0 
18.04000000000000 0.2184141126993 0.4334027575428 -0.774895859866 0.4049613950455 -0.774895859866 0.4049613950457 0.2311115456896 0.4267670656474
!< P1 F=18.04 Eeff=(undefined: mp) Z0=(undefined: mp) R=0.0 C=0.0 
!< P2 F=18.04 Eeff=(undefined: mp) Z0=(undefined: mp) R=0.0 C=0.0 
18.05000000000000 0.3131273090971 0.4808105228162 -0.680994297589 0.4549937319306 -0.680994297589 0.4549937319304 0.3243515094938 0.4733112811275
!< P1 F=18.05 Eeff=(undefined: mp) Z0=(undefined: mp) R=0.0 C=0.0 
!< P2 F=18.05 Eeff=(undefined: mp) Z0=(undefined: mp) R=0.0 C=0.0 
18.06000000000000 0.4086006374485 0.5059735368298 -0.586338308372 0.4829530901037 -0.586338308372 0.4829530901036 0.4183214064596 0.4979667677598
!< P1 F=18.06 Eeff=(undefined: mp) Z0=(undefined: mp) R=0.0 C=0.0 
!< P2 F=18.06 Eeff=(undefined: mp) Z0=(undefined: mp) R=0.0 C=0.0 
18.07000000000000 0.5021948808674 0.5120388858576 -0.493545505786 0.4919647494659 -0.493545505786 0.4919647494661 0.5104252162470 0.5038349110757
!< P1 F=18.07 Eeff=(undefined: mp) Z0=(undefined: mp) R=0.0 C=0.0 
!< P2 F=18.07 Eeff=(undefined: mp) Z0=(undefined: mp) R=0.0 C=0.0 
18.08000000000000 0.5953564200756 0.5006624817655 -0.401181552593 0.4836746574733 -0.401181552593 0.4836746574732 0.6020854683055 0.4925497705086
!< P1 F=18.08 Eeff=(undefined: mp) Z0=(undefined: mp) R=0.0 C=0.0 
!< P2 F=18.08 Eeff=(undefined: mp) Z0=(undefined: mp) R=0.0 C=0.0 
18.09000000000000 0.6967540382828 0.4673208447193 -0.300650748176 0.4536013291961 -0.300650748176 0.4536013291961 0.7018255088470 0.4596693560639
!< P1 F=18.09 Eeff=(undefined: mp) Z0=(undefined: mp) R=0.0 C=0.0 
!< P2 F=18.09 Eeff=(undefined: mp) Z0=(undefined: mp) R=0.0 C=0.0 
18.10000000000000 0.8384334781192 0.3732900206140 -0.160179906581 0.3633541809381 -0.160179906581 0.3633541809381 0.8411483705942 0.3671315232553
!< P1 F=18.1 Eeff=(undefined: mp) Z0=(undefined: mp) R=0.0 C=0.0 
!< P2 F=18.1 Eeff=(undefined: mp) Z0=(undefined: mp) R=0.0 C=0.0 
18.10100000000000 0.8580877664825 0.3539108791751 -0.140693169525 0.3444385382980 -0.140693169525 0.3444385382980 0.8604730098268 0.3480714362670
!< P1 F=18.101 Eeff=(undefined: mp) Z0=(undefined: mp) R=0.0 C=0.0 
!< P2 F=18.101 Eeff=(undefined: mp) Z0=(undefined: mp) R=0.0 C=0.0 
18.10200000000000 0.8793214771195 0.3304005994570 -0.119640465358 0.3214270411836 -0.119640465358 0.3214270411836 0.8813500930118 0.3249505036051
!< P1 F=18.102 Eeff=(undefined: mp) Z0=(undefined: mp) R=0.0 C=0.0 
!< P2 F=18.102 Eeff=(undefined: mp) Z0=(undefined: mp) R=0.0 C=0.0 
18.10300000000000 0.9022061499155 0.3013577334509 -0.096950864420 0.2929302125629 -0.096950864420 0.2929302125629 0.9038499447808 0.2963911229709
!< P1 F=18.103 Eeff=(undefined: mp) Z0=(undefined: mp) R=0.0 C=0.0 
!< P2 F=18.103 Eeff=(undefined: mp) Z0=(undefined: mp) R=0.0 C=0.0 
18.10400000000000 0.9266041885445 0.2647532236703 -0.072760785437 0.2569363275822 -0.072760785437 0.2569363275822 0.9278373139641 0.2603987528541
!< P1 F=18.104 Eeff=(undefined: mp) Z0=(undefined: mp) R=0.0 C=0.0 
!< P2 F=18.104 Eeff=(undefined: mp) Z0=(undefined: mp) R=0.0 C=0.0 
18.10500000000000 0.9518737444581 0.2176085016115 -0.047706592606 0.2104922698328 -0.047706592606 0.2104922698328 0.9526812739558 0.2140454989395
!< P1 F=18.105 Eeff=(undefined: mp) Z0=(undefined: mp) R=0.0 C=0.0 
!< P2 F=18.105 Eeff=(undefined: mp) Z0=(undefined: mp) R=0.0 C=0.0 
18.10600000000000 0.9762044211383 0.1555398921251 -0.023583214853 0.1492518076437 -0.023583214853 0.1492518076437 0.9766022312561 0.1530222591580
!< P1 F=18.106 Eeff=(undefined: mp) Z0=(undefined: mp) R=0.0 C=0.0 
!< P2 F=18.106 Eeff=(undefined: mp) Z0=(undefined: mp) R=0.0 C=0.0 
18.10700000000000 0.9951211496484 0.0722693588226 -4.827491025e-3 0.0669905413335 -4.827491025e-3 0.0669905413335 0.9952012505588 0.0711578076421
!< P1 F=18.107 Eeff=(undefined: mp) Z0=(undefined: mp) R=0.0 C=0.0 
!< P2 F=18.107 Eeff=(undefined: mp) Z0=(undefined: mp) R=0.0 C=0.0 
18.10800000000000 0.9982101720456 -0.040211189660 -1.764215610e-3 -0.044231212894 -1.764215610e-3 -0.044231212894 0.9982417408539 -0.039419717987
!< P1 F=18.108 Eeff=(undefined: mp) Z0=(undefined: mp) R=0.0 C=0.0 
!< P2 F=18.108 Eeff=(undefined: mp) Z0=(undefined: mp) R=0.0 C=0.0 
18.10900000000000 0.9628396184245 -0.187952777740 -0.036831921695 -0.190412793888 -0.036831921695 -0.190412793888 0.9634768542705 -0.184658411000
!< P1 F=18.109 Eeff=(undefined: mp) Z0=(undefined: mp) R=0.0 C=0.0 
!< P2 F=18.109 Eeff=(undefined: mp) Z0=(undefined: mp) R=0.0 C=0.0 
18.11000000000000 0.8475919484697 -0.359344030386 -0.151094337934 -0.360042022216 -0.151094337934 -0.360042022216 0.8501936513947 -0.353144444120
!< P1 F=18.11 Eeff=(undefined: mp) Z0=(undefined: mp) R=0.0 C=0.0 
!< P2 F=18.11 Eeff=(undefined: mp) Z0=(undefined: mp) R=0.0 C=0.0 
18.11100000000000 0.6102700600115 -0.489371912479 -0.386388106862 -0.488661248729 -0.386388106862 -0.488661248729 0.6169128702122 -0.480970815576
!< P1 F=18.111 Eeff=(undefined: mp) Z0=(undefined: mp) R=0.0 C=0.0 
!< P2 F=18.111 Eeff=(undefined: mp) Z0=(undefined: mp) R=0.0 C=0.0 
18.11110000000000 0.5801455427994 -0.495452984043 -0.416255204430 -0.494660585212 -0.416255204430 -0.494660585211 0.5873012025875 -0.486949491905
!< P1 F=18.1111 Eeff=(undefined: mp) Z0=(undefined: mp) R=0.0 C=0.0 
!< P2 F=18.1111 Eeff=(undefined: mp) Z0=(undefined: mp) R=0.0 C=0.0 
18.11120000000000 0.5492237496420 -0.499739869693 -0.446912766498 -0.498881062575 -0.446912766498 -0.498881062575 0.5569058218882 -0.491164504090
!< P1 F=18.1112 Eeff=(undefined: mp) Z0=(undefined: mp) R=0.0 C=0.0 
!< P2 F=18.1112 Eeff=(undefined: mp) Z0=(undefined: mp) R=0.0 C=0.0 
18.11130000000000 0.5176575849269 -0.502124782480 -0.478209195305 -0.501215814919 -0.478209195305 -0.501215814919 0.5258770304160 -0.493509899894
!< P1 F=18.1113 Eeff=(undefined: mp) Z0=(undefined: mp) R=0.0 C=0.0 
!< P2 F=18.1113 Eeff=(undefined: mp) Z0=(undefined: mp) R=0.0 C=0.0 
18.11140000000000 0.4856166587889 -0.502516946462 -0.509976330173 -0.501574841762 -0.509976330173 -0.501574841762 0.4943815517830 -0.493896448693
!< P1 F=18.1114 Eeff=(undefined: mp) Z0=(undefined: mp) R=0.0 C=0.0 
!< P2 F=18.1114 Eeff=(undefined: mp) Z0=(undefined: mp) R=0.0 C=0.0 
18.11150000000000 0.4532849366386 -0.500845604277 -0.542031775342 -0.499887988870 -0.542031775342 -0.499887988870 0.4626002254905 -0.492254593156
!< P1 F=18.1115 Eeff=(undefined: mp) Z0=(undefined: mp) R=0.0 C=0.0 
!< P2 F=18.1115 Eeff=(undefined: mp) Z0=(undefined: mp) R=0.0 C=0.0 
18.11160000000000 0.4208579367253 -0.497062648182 -0.574181685514 -0.496107561831 -0.574181685514 -0.496107561831 0.4307252381954 -0.488537049060
!< P1 F=18.1116 Eeff=(undefined: mp) Z0=(undefined: mp) R=0.0 C=0.0 
!< P2 F=18.1116 Eeff=(undefined: mp) Z0=(undefined: mp) R=0.0 C=0.0 
18.11170000000000 0.3885390929879 -0.491144729503 -0.606224364814 -0.490210411375 -0.606224364814 -0.490210411375 0.3989565625634 -0.482720864772
!< P1 F=18.1117 Eeff=(undefined: mp) Z0=(undefined: mp) R=0.0 C=0.0 
!< P2 F=18.1117 Eeff=(undefined: mp) Z0=(undefined: mp) R=0.0 C=0.0 
18.11180000000000 0.3565361646460 -0.483094785905 -0.637953825936 -0.482199447466 -0.637953825936 -0.482199447466 0.3674984290963 -0.474808923126
!< P1 F=18.1118 Eeff=(undefined: mp) Z0=(undefined: mp) R=0.0 C=0.0 
!< P2 F=18.1118 Eeff=(undefined: mp) Z0=(undefined: mp) R=0.0 C=0.0 
18.11190000000000 0.3250560171066 -0.472942466065 -0.669164971897 -0.472104066840 -0.669164971897 -0.472104066840 0.3365541814726 -0.464830370563
!< P1 F=18.1119 Eeff=(undefined: mp) Z0=(undefined: mp) R=0.0 C=0.0 
!< P2 F=18.1119 Eeff=(undefined: mp) Z0=(undefined: mp) R=0.0 C=0.0 
18.11200000000000 0.2943014484694 -0.460744248670 -0.699656737185 -0.459980265730 -0.699656737185 -0.459980265730 0.3063231674154 -0.452840725154
!< P1 F=18.112 Eeff=(undefined: mp) Z0=(undefined: mp) R=0.0 C=0.0 
!< P2 F=18.112 Eeff=(undefined: mp) Z0=(undefined: mp) R=0.0 C=0.0 
18.11210000000000 0.2644661856931 -0.446582256913 -0.729237048848 -0.445909465028 -0.729237048847 -0.445909465029 0.2769958199970 -0.438920711825
!< P1 F=18.1121 Eeff=(undefined: mp) Z0=(undefined: mp) R=0.0 C=0.0 
!< P2 F=18.1121 Eeff=(undefined: mp) Z0=(undefined: mp) R=0.0 C=0.0 
18.11220000000000 0.2357312380591 -0.430562576119 -0.757726444706 -0.429996844602 -0.757726444706 -0.429996844602 0.2487500675136 -0.423174612264
!< P1 F=18.1122 Eeff=(undefined: mp) Z0=(undefined: mp) R=0.0 C=0.0 
!< P2 F=18.1122 Eeff=(undefined: mp) Z0=(undefined: mp) R=0.0 C=0.0 
18.11230000000000 0.2082612387200 -0.412812714420 -0.784961700516 -0.412368825131 -0.784961700516 -0.412368825131 0.2217477373544 -0.405727767991
!< P1 F=18.1123 Eeff=(undefined: mp) Z0=(undefined: mp) R=0.0 C=0.0 
!< P2 F=18.1123 Eeff=(undefined: mp) Z0=(undefined: mp) R=0.0 C=0.0 
18.11240000000000 0.1822010645616 -0.393478184517 -0.810799172867 -0.393169672801 -0.810799172867 -0.393169672801 0.1961312499661 -0.386723211620
!< P1 F=18.1124 Eeff=(undefined: mp) Z0=(undefined: mp) R=0.0 C=0.0 
!< P2 F=18.1124 Eeff=(undefined: mp) Z0=(undefined: mp) R=0.0 C=0.0 
18.11250000000000 0.1576743686261 -0.372719452316 -0.835116266833 -0.372558484333 -0.835116266833 -0.372558484333 0.1720221512059 -0.366318681138
!< P1 F=18.1125 Eeff=(undefined: mp) Z0=(undefined: mp) R=0.0 C=0.0 
!< P2 F=18.1125 Eeff=(undefined: mp) Z0=(undefined: mp) R=0.0 C=0.0 
18.11260000000000 0.1347815062368 -0.350707770138 -0.857813484424 -0.350705049024 -0.857813484424 -0.350705049024 0.1495190890580 -0.344682515465
!< P1 F=18.1126 Eeff=(undefined: mp) Z0=(undefined: mp) R=0.0 C=0.0 
!< P2 F=18.1126 Eeff=(undefined: mp) Z0=(undefined: mp) R=0.0 C=0.0 
18.11270000000000 0.1135989718731 -0.327621388248 -0.878814983998 -0.327786094125 -0.878814983998 -0.327786094124 0.1286972578960 -0.321989931919
!< P1 F=18.1127 Eeff=(undefined: mp) Z0=(undefined: mp) R=0.0 C=0.0 
!< P2 F=18.1127 Eeff=(undefined: mp) Z0=(undefined: mp) R=0.0 C=0.0 
18.11280000000000 0.0941790321647 -0.303641259459 -0.898068945420 -0.303981026873 -0.898068945420 -0.303981026872 0.1096080351769 -0.298418804989
!< P1 F=18.1128 Eeff=(undefined: mp) Z0=(undefined: mp) R=0.0 C=0.0 
!< P2 F=18.1128 Eeff=(undefined: mp) Z0=(undefined: mp) R=0.0 C=0.0 
18.11290000000000 0.0765511898634 -0.278948320633 -0.915546118203 -0.279469238294 -0.915546118203 -0.279469238294 0.0922804212796 -0.274146993605
!< P1 F=18.1129 Eeff=(undefined: mp) Z0=(undefined: mp) R=0.0 C=0.0 
!< P2 F=18.1129 Eeff=(undefined: mp) Z0=(undefined: mp) R=0.0 C=0.0 
18.11300000000000 0.0607224355801 -0.253718904009 -0.931239572165 -0.254425554642 -0.931239572165 -0.254425554643 0.0767212864767 -0.249347830619
!< P1 F=18.113 Eeff=(undefined: mp) Z0=(undefined: mp) R=0.0 C=0.0 
!< P2 F=18.113 Eeff=(undefined: mp) Z0=(undefined: mp) R=0.0 C=0.0 
18.11400000000000 -8.568137675e-3 -3.655679065e-3 -0.999937378301 -6.200578409e-3 -0.999937378302 -6.200578387e-3 0.0086128297211 -3.549140473e-3
!< P1 F=18.114 Eeff=(undefined: mp) Z0=(undefined: mp) R=0.0 C=0.0 
!< P2 F=18.114 Eeff=(undefined: mp) Z0=(undefined: mp) R=0.0 C=0.0 
18.11500000000000 0.0275567196543 0.1886334156153 -0.964120208096 0.1847438381068 -0.964120208097 0.1847438381062 0.0441264044093 0.1854583476820
!< P1 F=18.115 Eeff=(undefined: mp) Z0=(undefined: mp) R=0.0 C=0.0 
!< P2 F=18.115 Eeff=(undefined: mp) Z0=(undefined: mp) R=0.0 C=0.0 
18.11600000000000 0.0994115477485 0.3128703192480 -0.892878227408 0.3082174208816 -0.892878227408 0.3082174208821 0.1147620533017 0.3075713959613
!< P1 F=18.116 Eeff=(undefined: mp) Z0=(undefined: mp) R=0.0 C=0.0 
!< P2 F=18.116 Eeff=(undefined: mp) Z0=(undefined: mp) R=0.0 C=0.0 
18.11700000000000 0.1737630215016 0.3890057881641 -0.819160870242 0.3840004918043 -0.819160870242 0.3840004918044 0.1878518083989 0.3824013453813
!< P1 F=18.117 Eeff=(undefined: mp) Z0=(undefined: mp) R=0.0 C=0.0 
!< P2 F=18.117 Eeff=(undefined: mp) Z0=(undefined: mp) R=0.0 C=0.0 
18.11800000000000 0.2400408304207 0.4353815220095 -0.753448151304 0.4302780652014 -0.753448151304 0.4302780652019 0.2530051794465 0.4279778605814
!< P1 F=18.118 Eeff=(undefined: mp) Z0=(undefined: mp) R=0.0 C=0.0 
!< P2 F=18.118 Eeff=(undefined: mp) Z0=(undefined: mp) R=0.0 C=0.0 
18.11900000000000 0.2964823792736 0.4638248108484 -0.697487608384 0.4587763941708 -0.697487608384 0.4587763941711 0.3084895574612 0.4559270219169
!< P1 F=18.119 Eeff=(undefined: mp) Z0=(undefined: mp) R=0.0 C=0.0 
!< P2 F=18.119 Eeff=(undefined: mp) Z0=(undefined: mp) R=0.0 C=0.0 
18.12000000000000 0.3440373237330 0.4813483527594 -0.650337700188 0.4764482751583 -0.650337700189 0.4764482751582 0.3552384386975 0.4731422286136
!< P1 F=18.12 Eeff=(undefined: mp) Z0=(undefined: mp) R=0.0 C=0.0 
!< P2 F=18.12 Eeff=(undefined: mp) Z0=(undefined: mp) R=0.0 C=0.0 
18.13000000000000 0.5779795093400 0.4964513346315 -0.418378739733 0.4944036703731 -0.418378739733 0.4944036703731 0.5852265536394 0.4878874068772
!< P1 F=18.13 Eeff=(undefined: mp) Z0=(undefined: mp) R=0.0 C=0.0 
!< P2 F=18.13 Eeff=(undefined: mp) Z0=(undefined: mp) R=0.0 C=0.0 
18.14000000000000 0.6700924285531 0.4706039224085 -0.327031212662 0.4717612440125 -0.327031212662 0.4717612440125 0.6757923630610 0.4623814406084
!< P1 F=18.14 Eeff=(undefined: mp) Z0=(undefined: mp) R=0.0 C=0.0 
!< P2 F=18.14 Eeff=(undefined: mp) Z0=(undefined: mp) R=0.0 C=0.0 
18.15000000000000 0.7256936364733 0.4447185340170 -0.271876633410 0.4490849225849 -0.271876633410 0.4490849225848 0.7304629144694 0.4368406564196
!< P1 F=18.15 Eeff=(undefined: mp) Z0=(undefined: mp) R=0.0 C=0.0 
!< P2 F=18.15 Eeff=(undefined: mp) Z0=(undefined: mp) R=0.0 C=0.0 
18.16000000000000 0.7655318755106 0.4204508869204 -0.232342994777 0.4280172099901 -0.232342994777 0.4280172099901 0.7696349155533 0.4128923558217
!< P1 F=18.16 Eeff=(undefined: mp) Z0=(undefined: mp) R=0.0 C=0.0 
!< P2 F=18.16 Eeff=(undefined: mp) Z0=(undefined: mp) R=0.0 C=0.0 
18.17000000000000 0.7965109535069 0.3976562939189 -0.201585039322 0.4084155295447 -0.201585039322 0.4084155295447 0.8000954744486 0.3903939790988
!< P1 F=18.17 Eeff=(undefined: mp) Z0=(undefined: mp) R=0.0 C=0.0 
!< P2 F=18.17 Eeff=(undefined: mp) Z0=(undefined: mp) R=0.0 C=0.0 
18.18000000000000 0.8217194165172 0.3761144763424 -0.176540244423 0.3900623582241 -0.176540244423 0.3900623582241 0.8248811872582 0.3691286032037
!< P1 F=18.18 Eeff=(undefined: mp) Z0=(undefined: mp) R=0.0 C=0.0 
!< P2 F=18.18 Eeff=(undefined: mp) Z0=(undefined: mp) R=0.0 C=0.0 
18.19000000000000 0.8428266356857 0.3556439168226 -0.155553193598 0.3727785811531 -0.155553193598 0.3727785811532 0.8456334839297 0.3489173888636
!< P1 F=18.19 Eeff=(undefined: mp) Z0=(undefined: mp) R=0.0 C=0.0 
!< P2 F=18.19 Eeff=(undefined: mp) Z0=(undefined: mp) R=0.0 C=0.0 
18.20000000000000 0.8608596679468 0.3360896892696 -0.137605331977 0.3564114553168 -0.137605331977 0.3564114553168 0.8633623112648 0.3296075949039
!< P1 F=18.2 Eeff=(undefined: mp) Z0=(undefined: mp) R=0.0 C=0.0 
!< P2 F=18.2 Eeff=(undefined: mp) Z0=(undefined: mp) R=0.0 C=0.0 
